
T1E3C 000:101 SEGGER J-Link V4.62 Log File (0001ms, 0102ms total)
T1E3C 000:101 DLL Compiled: Jan 25 2013 15:19:47 (0001ms, 0102ms total)
T1E3C 000:101 Logging started @ 2015-06-18 23:52 (0001ms, 0102ms total)
T1E3C 000:102 JLINK_SetWarnOutHandler(...) (0000ms, 0102ms total)
T1E3C 000:102 JLINK_OpenEx(...)
Firmware: J-Link ARM V8 compiled Nov 25 2013 19:20:08
Hardware: V8.00
S/N: 17935099
Feature(s): RDI,FlashDL,FlashBP,JFlash  returns O.K. (0036ms, 0138ms total)
T1E3C 000:138 JLINK_SetErrorOutHandler(...) (0000ms, 0138ms total)
T1E3C 000:138 JLINK_ExecCommand("ProjectFile = "G:\fans-rt\trunk\projects\stm32-lite\JLinkSettings.ini"", ...)  returns 0x00 (0001ms, 0139ms total)
T1E3C 000:149 JLINK_ExecCommand("Device = STM32F103C8", ...)
                JLINK_ExecCommand("map ram 0x20000000 - 0x20004FFF", ...)  returns 0x00 (0000ms, 0000ms total)
                JLINK_AddMirrorAreaEx(Addr = 0x00000000, Size = 0x00000000) (0000ms, 0000ms total)
              Device "STM32F103C8" selected (64 KB flash, 20 KB RAM).  returns 0x00 (0014ms, 0153ms total)
T1E3C 000:163 JLINK_ExecCommand("DisableConnectionTimeout", ...)  returns 0x00 (0000ms, 0153ms total)
T1E3C 000:163 JLINK_TIF_Select(JLINKARM_TIF_SWD)  returns 0x00 (0008ms, 0161ms total)
T1E3C 000:171 JLINK_SetSpeed(10000) (0001ms, 0162ms total)
T1E3C 000:172 JLINK_GetHardwareVersion()  returns 0x13880 (0000ms, 0162ms total)
T1E3C 000:172 JLINK_GetDLLVersion()  returns 46200 (0000ms, 0162ms total)
T1E3C 000:173 JLINK_GetFirmwareString(...) (0000ms, 0162ms total)
T1E3C 000:195 JLINK_GetDLLVersion()  returns 46200 (0000ms, 0162ms total)
T1E3C 000:195 JLINK_GetCompileDateTime() (0000ms, 0162ms total)
T1E3C 000:199 JLINK_GetFirmwareString(...) (0000ms, 0162ms total)
T1E3C 000:206 JLINK_GetHardwareVersion()  returns 0x13880 (0000ms, 0162ms total)
T1E3C 000:243 JLINK_GetId() >0x108 TIF>Found SWD-DP with ID 0x1BA01477 >0x0D TIF> >0x28 TIF> >0x0D TIF> >0x28 TIF> >0x0D TIF> >0x21 TIF> >0x0D TIF> >0x28 TIF> >0x0D TIF> >0x28 TIF> >0x0D TIF> >0x28 TIF> >0x0D TIF> >0x21 TIF> >0x0D TIF> >0x21 TIF> >0x0D TIF> >0x28 TIF> >0x0D TIF> >0x21 TIF> >0x0D TIF> >0x21 TIF> >0x108 TIF>Found SWD-DP with ID 0x1BA01477 >0x0D TIF> >0x21 TIF> >0x0D TIF> >0x28 TIF> >0x0D TIF> >0x28 TIF> >0x0D TIF> >0x21 TIF> >0x0D TIF> >0x21 TIF> >0x0D TIF> >0x28 TIF> >0x0D TIF> >0x21 TIF>
 >0x0D TIF> >0x21 TIF> >0x0D TIF> >0x21 TIF> >0x0D TIF> >0x21 TIF> >0x0D TIF> >0x21 TIF> >0x0D TIF> >0x28 TIF> >0x0D TIF> >0x28 TIF> >0x0D TIF> >0x21 TIF> >0x0D TIF> >0x21 TIF> >0x0D TIF> >0x28 TIF> >0x0D TIF> >0x21 TIF> >0x0D TIF> >0x21 TIF> >0x0D TIF> >0x28 TIF> >0x0D TIF> >0x28 TIF> >0x0D TIF> >0x28 TIF> >0x0D TIF> >0x21 TIF> >0x0D TIF> >0x21 TIF> >0x0D TIF> >0x28 TIF> >0x0D TIF> >0x28 TIF> >0x0D TIF> >0x28 TIF> >0x0D TIF> >0x21 TIF> >0x0D TIF> >0x21 TIF> >0x0D TIF> >0x21 TIF>TPIU fitted. >0x0D TIF>
 >0x28 TIF> >0x0D TIF> >0x21 TIF> >0x0D TIF> >0x21 TIF> >0x0D TIF> >0x28 TIF> >0x0D TIF> >0x21 TIF> >0x0D TIF> >0x21 TIF>FPUnit: 6 code (BP) slots and 2 literal slots >0x0D TIF> >0x28 TIF> >0x0D TIF> >0x21 TIF> >0x0D TIF> >0x21 TIF> >0x0D TIF> >0x28 TIF> >0x0D TIF> >0x21 TIF> >0x0D TIF> >0x21 TIF> >0x0D TIF> >0x28 TIF> >0x0D TIF> >0x21 TIF> >0x0D TIF> >0x21 TIF> >0x0D TIF> >0x28 TIF> >0x0D TIF> >0x21 TIF> >0x0D TIF> >0x21 TIF>Found Cortex-M3 r1p1, Little endian. >0x0D TIF> >0x21 TIF>  returns 0x1BA01477
 (0195ms, 0357ms total)
T1E3C 000:438 JLINK_GetDeviceFamily()  returns 3 (0000ms, 0357ms total)
T1E3C 000:444 JLINK_ReadMem (0xE00FFFF0, 0x0010 Bytes, ...) -- CPU is running -- CPU_ReadMem(16 bytes @ 0xE00FFFF0) -- Data:  0D 00 00 00 10 00 00 00 05 00 00 00 B1 00 00 00  returns 0x00 (0003ms, 0360ms total)
T1E3C 000:447 JLINK_ReadMem (0xE00FFFD0, 0x0020 Bytes, ...) -- CPU is running -- CPU_ReadMem(32 bytes @ 0xE00FFFD0) -- Data:  00 00 00 00 00 00 00 00 00 00 00 00 00 00 00 00 ...  returns 0x00 (0002ms, 0362ms total)
T1E3C 000:449 JLINK_ReadMem (0xE00FF000, 0x0018 Bytes, ...) -- CPU is running -- CPU_ReadMem(24 bytes @ 0xE00FF000) -- Data:  03 F0 F0 FF 03 20 F0 FF 03 30 F0 FF 03 10 F0 FF ...  returns 0x00 (0002ms, 0364ms total)
T1E3C 000:451 JLINK_ReadMemU32(0xE000ED00, 0x0001 Items, ...) -- CPU is running -- CPU_ReadMem(4 bytes @ 0xE000ED00) -- Data:  31 C2 1F 41  returns 0x01 (0002ms, 0366ms total)
T1E3C 000:453 JLINK_SetResetType(JLINKARM_RESET_TYPE_NORMAL)  returns JLINKARM_RESET_TYPE_NORMAL (0000ms, 0366ms total)
T1E3C 000:453 JLINK_Reset() -- CPU is running -- CPU_WriteMem(4 bytes @ 0xE000EDF0) -- CPU is running -- CPU_WriteMem(4 bytes @ 0xE000EDFC) >0x35 TIF> -- CPU is running -- CPU_WriteMem(4 bytes @ 0xE000ED0C) -- CPU is running -- CPU_ReadMem(4 bytes @ 0xE000EDF0) -- CPU is running -- CPU_ReadMem(4 bytes @ 0xE000EDF0) -- CPU is running -- CPU_WriteMem(4 bytes @ 0xE000EDF0) -- CPU is running -- CPU_WriteMem(4 bytes @ 0xE000EDFC) -- CPU is running -- CPU_ReadMem(4 bytes @ 0xE000EDF0)
 -- CPU_WriteMem(4 bytes @ 0xE0002000) (0033ms, 0399ms total)
T1E3C 000:486 JLINK_Halt()  returns 0x00 (0000ms, 0399ms total)
T1E3C 000:486 JLINK_IsHalted()  returns TRUE (0000ms, 0399ms total)
T1E3C 000:486 JLINK_ReadMemU32(0xE000EDF0, 0x0001 Items, ...) -- CPU_ReadMem(4 bytes @ 0xE000EDF0) -- Data:  03 00 03 00  returns 0x01 (0002ms, 0401ms total)
T1E3C 000:488 JLINK_WriteU32(0xE000EDF0, 0xA05F0003) -- CPU_WriteMem(4 bytes @ 0xE000EDF0)  returns 0x00 (0002ms, 0403ms total)
T1E3C 000:490 JLINK_WriteU32(0xE000EDFC, 0x01000000) -- CPU_WriteMem(4 bytes @ 0xE000EDFC)  returns 0x00 (0002ms, 0405ms total)
T1E3C 000:507 JLINK_GetHWStatus(...)  returns 0x00 (0001ms, 0406ms total)
T1E3C 000:519 JLINK_GetNumBPUnits(Type = 0xFFFFFF00)  returns 0x06 (0000ms, 0406ms total)
T1E3C 000:519 JLINK_GetNumBPUnits(Type = 0xF0)  returns 0x2000 (0000ms, 0406ms total)
T1E3C 000:519 JLINK_GetNumWPUnits()  returns 0x04 (0000ms, 0406ms total)
T1E3C 000:534 JLINK_GetSpeed()  returns 0xFA0 (0000ms, 0406ms total)
T1E3C 000:542 JLINK_ReadMemU32(0xE000E004, 0x0001 Items, ...) -- CPU_ReadMem(4 bytes @ 0xE000E004) -- Data:  01 00 00 00  returns 0x01 (0002ms, 0408ms total)
T1E3C 000:544 JLINK_ReadMemU32(0xE000E004, 0x0001 Items, ...) -- CPU_ReadMem(4 bytes @ 0xE000E004) -- Data:  01 00 00 00  returns 0x01 (0001ms, 0409ms total)
T1E3C 000:545 JLINK_WriteMem(0xE0001000, 0x001C Bytes, ...) -- Data:  01 00 00 00 00 00 00 00 00 00 00 00 00 00 00 00 ... -- CPU_WriteMem(28 bytes @ 0xE0001000)  returns 0x1C (0002ms, 0411ms total)
T1E3C 000:547 JLINK_ReadMem (0xE0001000, 0x001C Bytes, ...) -- CPU_ReadMem(28 bytes @ 0xE0001000) -- Data:  01 00 00 40 00 00 00 00 00 00 00 00 00 00 00 00 ...  returns 0x00 (0002ms, 0413ms total)
T1E3C 000:549 JLINK_Halt()  returns 0x00 (0001ms, 0414ms total)
T1E3C 000:550 JLINK_IsHalted()  returns TRUE (0000ms, 0414ms total)
T1E3C 000:561 JLINK_WriteMem(0x20000000, 0x0164 Bytes, ...) -- Data:  00 BE 0A E0 0D 78 2D 06 68 40 08 24 40 00 00 D3 ... -- CPU_WriteMem(356 bytes @ 0x20000000)  returns 0x164 (0004ms, 0418ms total)
T1E3C 000:565 JLINK_WriteReg(R0, 0x08000000)  returns 0x00 (0000ms, 0418ms total)
T1E3C 000:565 JLINK_WriteReg(R1, 0x007A1200)  returns 0x00 (0000ms, 0418ms total)
T1E3C 000:565 JLINK_WriteReg(R2, 0x00000001)  returns 0x00 (0000ms, 0418ms total)
T1E3C 000:565 JLINK_WriteReg(R3, 0x00000000)  returns 0x00 (0000ms, 0418ms total)
T1E3C 000:565 JLINK_WriteReg(R4, 0x00000000)  returns 0x00 (0000ms, 0418ms total)
T1E3C 000:565 JLINK_WriteReg(R5, 0x00000000)  returns 0x00 (0000ms, 0418ms total)
T1E3C 000:565 JLINK_WriteReg(R6, 0x00000000)  returns 0x00 (0000ms, 0418ms total)
T1E3C 000:565 JLINK_WriteReg(R7, 0x00000000)  returns 0x00 (0000ms, 0418ms total)
T1E3C 000:565 JLINK_WriteReg(R8, 0x00000000)  returns 0x00 (0000ms, 0418ms total)
T1E3C 000:565 JLINK_WriteReg(R9, 0x20000160)  returns 0x00 (0000ms, 0418ms total)
T1E3C 000:565 JLINK_WriteReg(R10, 0x00000000)  returns 0x00 (0000ms, 0418ms total)
T1E3C 000:565 JLINK_WriteReg(R11, 0x00000000)  returns 0x00 (0000ms, 0418ms total)
T1E3C 000:565 JLINK_WriteReg(R12, 0x00000000)  returns 0x00 (0000ms, 0418ms total)
T1E3C 000:565 JLINK_WriteReg(R13, 0x20001000)  returns 0x00 (0000ms, 0418ms total)
T1E3C 000:565 JLINK_WriteReg(R14, 0x20000001)  returns 0x00 (0000ms, 0418ms total)
T1E3C 000:565 JLINK_WriteReg(R15, 0x20000038)  returns 0x00 (0000ms, 0418ms total)
T1E3C 000:565 JLINK_WriteReg(XPSR, 0x01000000)  returns 0x00 (0000ms, 0418ms total)
T1E3C 000:565 JLINK_WriteReg(MSP, 0x20001000)  returns 0x00 (0000ms, 0418ms total)
T1E3C 000:566 JLINK_WriteReg(PSP, 0x20001000)  returns 0x00 (0000ms, 0419ms total)
T1E3C 000:566 JLINK_WriteReg(CFBP, 0x00000000)  returns 0x00 (0000ms, 0419ms total)
T1E3C 000:566 JLINK_SetBPEx(Addr = 0x20000000, Type = 0xFFFFFFF2) -- CPU_ReadMem(2 bytes @ 0x20000000)  returns 0x00000001 (0001ms, 0420ms total)
T1E3C 000:567 JLINK_Go() -- CPU_WriteMem(2 bytes @ 0x20000000) -- CPU_WriteMem(4 bytes @ 0xE0002008) -- CPU_WriteMem(4 bytes @ 0xE000200C) -- CPU_WriteMem(4 bytes @ 0xE0002010) -- CPU_WriteMem(4 bytes @ 0xE0002014) -- CPU_WriteMem(4 bytes @ 0xE0002018) -- CPU_WriteMem(4 bytes @ 0xE000201C) (0019ms, 0439ms total)
T1E3C 000:586 JLINK_IsHalted() -- CPU_ReadMem(2 bytes @ 0x20000000)  returns TRUE (0007ms, 0446ms total)
T1E3C 000:594 JLINK_ReadReg(R15)  returns 0x20000000 (0000ms, 0439ms total)
T1E3C 000:594 JLINK_ClrBPEx(BPHandle = 0x00000001)  returns 0x00 (0000ms, 0439ms total)
T1E3C 000:594 JLINK_ReadReg(R0)  returns 0x00000000 (0000ms, 0439ms total)
T1E3C 000:594 JLINK_WriteReg(R0, 0x08000000)  returns 0x00 (0000ms, 0439ms total)
T1E3C 000:594 JLINK_WriteReg(R1, 0x007A1200)  returns 0x00 (0000ms, 0439ms total)
T1E3C 000:594 JLINK_WriteReg(R2, 0x00000001)  returns 0x00 (0000ms, 0439ms total)
T1E3C 000:594 JLINK_WriteReg(R3, 0x00000000)  returns 0x00 (0000ms, 0439ms total)
T1E3C 000:594 JLINK_WriteReg(R4, 0x00000000)  returns 0x00 (0000ms, 0439ms total)
T1E3C 000:594 JLINK_WriteReg(R5, 0x00000000)  returns 0x00 (0000ms, 0439ms total)
T1E3C 000:594 JLINK_WriteReg(R6, 0x00000000)  returns 0x00 (0000ms, 0439ms total)
T1E3C 000:594 JLINK_WriteReg(R7, 0x00000000)  returns 0x00 (0000ms, 0439ms total)
T1E3C 000:594 JLINK_WriteReg(R8, 0x00000000)  returns 0x00 (0000ms, 0439ms total)
T1E3C 000:594 JLINK_WriteReg(R9, 0x20000160)  returns 0x00 (0000ms, 0439ms total)
T1E3C 000:594 JLINK_WriteReg(R10, 0x00000000)  returns 0x00 (0000ms, 0439ms total)
T1E3C 000:594 JLINK_WriteReg(R11, 0x00000000)  returns 0x00 (0000ms, 0439ms total)
T1E3C 000:594 JLINK_WriteReg(R12, 0x00000000)  returns 0x00 (0000ms, 0439ms total)
T1E3C 000:595 JLINK_WriteReg(R13, 0x20001000)  returns 0x00 (0000ms, 0439ms total)
T1E3C 000:595 JLINK_WriteReg(R14, 0x20000001)  returns 0x00 (0000ms, 0439ms total)
T1E3C 000:595 JLINK_WriteReg(R15, 0x2000007C)  returns 0x00 (0000ms, 0439ms total)
T1E3C 000:595 JLINK_WriteReg(XPSR, 0x01000000)  returns 0x00 (0000ms, 0439ms total)
T1E3C 000:595 JLINK_WriteReg(MSP, 0x20001000)  returns 0x00 (0000ms, 0439ms total)
T1E3C 000:595 JLINK_WriteReg(PSP, 0x20001000)  returns 0x00 (0000ms, 0439ms total)
T1E3C 000:595 JLINK_WriteReg(CFBP, 0x00000000)  returns 0x00 (0000ms, 0439ms total)
T1E3C 000:595 JLINK_SetBPEx(Addr = 0x20000000, Type = 0xFFFFFFF2)  returns 0x00000002 (0000ms, 0439ms total)
T1E3C 000:595 JLINK_Go() (0003ms, 0442ms total)
T1E3C 000:598 JLINK_IsHalted()  returns FALSE (0002ms, 0444ms total)
T1E3C 000:709 JLINK_IsHalted() -- CPU_ReadMem(2 bytes @ 0x20000000)  returns TRUE (0006ms, 0448ms total)
T1E3C 000:715 JLINK_ReadReg(R15)  returns 0x20000000 (0000ms, 0442ms total)
T1E3C 000:715 JLINK_ClrBPEx(BPHandle = 0x00000002)  returns 0x00 (0000ms, 0442ms total)
T1E3C 000:715 JLINK_ReadReg(R0)  returns 0x00000000 (0000ms, 0442ms total)
T1E3C 000:784 JLINK_WriteReg(R0, 0x00000001)  returns 0x00 (0000ms, 0442ms total)
T1E3C 000:784 JLINK_WriteReg(R1, 0x007A1200)  returns 0x00 (0000ms, 0442ms total)
T1E3C 000:784 JLINK_WriteReg(R2, 0x00000001)  returns 0x00 (0000ms, 0442ms total)
T1E3C 000:784 JLINK_WriteReg(R3, 0x00000000)  returns 0x00 (0000ms, 0442ms total)
T1E3C 000:784 JLINK_WriteReg(R4, 0x00000000)  returns 0x00 (0000ms, 0442ms total)
T1E3C 000:784 JLINK_WriteReg(R5, 0x00000000)  returns 0x00 (0000ms, 0442ms total)
T1E3C 000:784 JLINK_WriteReg(R6, 0x00000000)  returns 0x00 (0000ms, 0442ms total)
T1E3C 000:784 JLINK_WriteReg(R7, 0x00000000)  returns 0x00 (0000ms, 0442ms total)
T1E3C 000:784 JLINK_WriteReg(R8, 0x00000000)  returns 0x00 (0000ms, 0442ms total)
T1E3C 000:784 JLINK_WriteReg(R9, 0x20000160)  returns 0x00 (0000ms, 0442ms total)
T1E3C 000:784 JLINK_WriteReg(R10, 0x00000000)  returns 0x00 (0000ms, 0442ms total)
T1E3C 000:784 JLINK_WriteReg(R11, 0x00000000)  returns 0x00 (0000ms, 0442ms total)
T1E3C 000:785 JLINK_WriteReg(R12, 0x00000000)  returns 0x00 (0000ms, 0442ms total)
T1E3C 000:785 JLINK_WriteReg(R13, 0x20001000)  returns 0x00 (0000ms, 0442ms total)
T1E3C 000:785 JLINK_WriteReg(R14, 0x20000001)  returns 0x00 (0000ms, 0442ms total)
T1E3C 000:785 JLINK_WriteReg(R15, 0x2000006A)  returns 0x00 (0000ms, 0442ms total)
T1E3C 000:785 JLINK_WriteReg(XPSR, 0x01000000)  returns 0x00 (0000ms, 0442ms total)
T1E3C 000:785 JLINK_WriteReg(MSP, 0x20001000)  returns 0x00 (0000ms, 0442ms total)
T1E3C 000:785 JLINK_WriteReg(PSP, 0x20001000)  returns 0x00 (0000ms, 0442ms total)
T1E3C 000:785 JLINK_WriteReg(CFBP, 0x00000000)  returns 0x00 (0000ms, 0442ms total)
T1E3C 000:785 JLINK_SetBPEx(Addr = 0x20000000, Type = 0xFFFFFFF2)  returns 0x00000003 (0000ms, 0442ms total)
T1E3C 000:785 JLINK_Go() (0004ms, 0446ms total)
T1E3C 000:789 JLINK_IsHalted() -- CPU_ReadMem(2 bytes @ 0x20000000)  returns TRUE (0008ms, 0454ms total)
T1E3C 000:797 JLINK_ReadReg(R15)  returns 0x20000000 (0000ms, 0446ms total)
T1E3C 000:797 JLINK_ClrBPEx(BPHandle = 0x00000003)  returns 0x00 (0000ms, 0446ms total)
T1E3C 000:797 JLINK_ReadReg(R0)  returns 0x00000000 (0000ms, 0446ms total)
T1E3C 000:819 JLINK_WriteMem(0x20000000, 0x0164 Bytes, ...) -- Data:  00 BE 0A E0 0D 78 2D 06 68 40 08 24 40 00 00 D3 ... -- CPU_WriteMem(356 bytes @ 0x20000000)  returns 0x164 (0005ms, 0451ms total)
T1E3C 000:824 JLINK_WriteReg(R0, 0x08000000)  returns 0x00 (0000ms, 0451ms total)
T1E3C 000:824 JLINK_WriteReg(R1, 0x007A1200)  returns 0x00 (0000ms, 0451ms total)
T1E3C 000:824 JLINK_WriteReg(R2, 0x00000002)  returns 0x00 (0000ms, 0451ms total)
T1E3C 000:824 JLINK_WriteReg(R3, 0x00000000)  returns 0x00 (0000ms, 0451ms total)
T1E3C 000:824 JLINK_WriteReg(R4, 0x00000000)  returns 0x00 (0000ms, 0451ms total)
T1E3C 000:824 JLINK_WriteReg(R5, 0x00000000)  returns 0x00 (0000ms, 0451ms total)
T1E3C 000:824 JLINK_WriteReg(R6, 0x00000000)  returns 0x00 (0000ms, 0451ms total)
T1E3C 000:824 JLINK_WriteReg(R7, 0x00000000)  returns 0x00 (0000ms, 0451ms total)
T1E3C 000:824 JLINK_WriteReg(R8, 0x00000000)  returns 0x00 (0000ms, 0451ms total)
T1E3C 000:824 JLINK_WriteReg(R9, 0x20000160)  returns 0x00 (0000ms, 0451ms total)
T1E3C 000:824 JLINK_WriteReg(R10, 0x00000000)  returns 0x00 (0000ms, 0451ms total)
T1E3C 000:824 JLINK_WriteReg(R11, 0x00000000)  returns 0x00 (0000ms, 0451ms total)
T1E3C 000:824 JLINK_WriteReg(R12, 0x00000000)  returns 0x00 (0000ms, 0451ms total)
T1E3C 000:824 JLINK_WriteReg(R13, 0x20001000)  returns 0x00 (0000ms, 0451ms total)
T1E3C 000:824 JLINK_WriteReg(R14, 0x20000001)  returns 0x00 (0000ms, 0451ms total)
T1E3C 000:824 JLINK_WriteReg(R15, 0x20000038)  returns 0x00 (0000ms, 0451ms total)
T1E3C 000:824 JLINK_WriteReg(XPSR, 0x01000000)  returns 0x00 (0000ms, 0451ms total)
T1E3C 000:824 JLINK_WriteReg(MSP, 0x20001000)  returns 0x00 (0000ms, 0451ms total)
T1E3C 000:824 JLINK_WriteReg(PSP, 0x20001000)  returns 0x00 (0000ms, 0451ms total)
T1E3C 000:824 JLINK_WriteReg(CFBP, 0x00000000)  returns 0x00 (0000ms, 0451ms total)
T1E3C 000:824 JLINK_SetBPEx(Addr = 0x20000000, Type = 0xFFFFFFF2) -- CPU_ReadMem(2 bytes @ 0x20000000)  returns 0x00000004 (0002ms, 0453ms total)
T1E3C 000:826 JLINK_Go() -- CPU_WriteMem(2 bytes @ 0x20000000) (0006ms, 0459ms total)
T1E3C 000:832 JLINK_IsHalted() -- CPU_ReadMem(2 bytes @ 0x20000000)  returns TRUE (0008ms, 0467ms total)
T1E3C 000:840 JLINK_ReadReg(R15)  returns 0x20000000 (0000ms, 0459ms total)
T1E3C 000:840 JLINK_ClrBPEx(BPHandle = 0x00000004)  returns 0x00 (0000ms, 0459ms total)
T1E3C 000:840 JLINK_ReadReg(R0)  returns 0x00000000 (0000ms, 0459ms total)
T1E3C 000:841 JLINK_WriteMem(0x20000164, 0x0400 Bytes, ...) -- Data:  40 1F 00 20 5D 62 00 08 65 62 00 08 65 67 00 08 ... -- CPU_WriteMem(1024 bytes @ 0x20000164)  returns 0x400 (0007ms, 0466ms total)
T1E3C 000:848 JLINK_WriteReg(R0, 0x08000000)  returns 0x00 (0000ms, 0466ms total)
T1E3C 000:848 JLINK_WriteReg(R1, 0x00000400)  returns 0x00 (0000ms, 0466ms total)
T1E3C 000:848 JLINK_WriteReg(R2, 0x20000164)  returns 0x00 (0000ms, 0466ms total)
T1E3C 000:848 JLINK_WriteReg(R3, 0x00000000)  returns 0x00 (0000ms, 0466ms total)
T1E3C 000:848 JLINK_WriteReg(R4, 0x00000000)  returns 0x00 (0000ms, 0466ms total)
T1E3C 000:848 JLINK_WriteReg(R5, 0x00000000)  returns 0x00 (0000ms, 0466ms total)
T1E3C 000:848 JLINK_WriteReg(R6, 0x00000000)  returns 0x00 (0000ms, 0466ms total)
T1E3C 000:848 JLINK_WriteReg(R7, 0x00000000)  returns 0x00 (0000ms, 0466ms total)
T1E3C 000:848 JLINK_WriteReg(R8, 0x00000000)  returns 0x00 (0000ms, 0466ms total)
T1E3C 000:848 JLINK_WriteReg(R9, 0x20000160)  returns 0x00 (0000ms, 0466ms total)
T1E3C 000:848 JLINK_WriteReg(R10, 0x00000000)  returns 0x00 (0000ms, 0466ms total)
T1E3C 000:848 JLINK_WriteReg(R11, 0x00000000)  returns 0x00 (0000ms, 0466ms total)
T1E3C 000:848 JLINK_WriteReg(R12, 0x00000000)  returns 0x00 (0000ms, 0466ms total)
T1E3C 000:848 JLINK_WriteReg(R13, 0x20001000)  returns 0x00 (0000ms, 0466ms total)
T1E3C 000:848 JLINK_WriteReg(R14, 0x20000001)  returns 0x00 (0000ms, 0466ms total)
T1E3C 000:848 JLINK_WriteReg(R15, 0x200000F4)  returns 0x00 (0000ms, 0466ms total)
T1E3C 000:848 JLINK_WriteReg(XPSR, 0x01000000)  returns 0x00 (0000ms, 0466ms total)
T1E3C 000:848 JLINK_WriteReg(MSP, 0x20001000)  returns 0x00 (0000ms, 0466ms total)
T1E3C 000:848 JLINK_WriteReg(PSP, 0x20001000)  returns 0x00 (0000ms, 0466ms total)
T1E3C 000:848 JLINK_WriteReg(CFBP, 0x00000000)  returns 0x00 (0000ms, 0466ms total)
T1E3C 000:848 JLINK_SetBPEx(Addr = 0x20000000, Type = 0xFFFFFFF2)  returns 0x00000005 (0000ms, 0466ms total)
T1E3C 000:848 JLINK_Go() (0005ms, 0471ms total)
T1E3C 000:853 JLINK_IsHalted()  returns FALSE (0002ms, 0473ms total)
T1E3C 000:886 JLINK_IsHalted() -- CPU_ReadMem(2 bytes @ 0x20000000)  returns TRUE (0007ms, 0478ms total)
T1E3C 000:893 JLINK_ReadReg(R15)  returns 0x20000000 (0000ms, 0471ms total)
T1E3C 000:893 JLINK_ClrBPEx(BPHandle = 0x00000005)  returns 0x00 (0000ms, 0471ms total)
T1E3C 000:893 JLINK_ReadReg(R0)  returns 0x00000000 (0000ms, 0471ms total)
T1E3C 000:893 JLINK_WriteMem(0x20000164, 0x0400 Bytes, ...) -- Data:  20 62 75 66 66 65 72 28 25 70 29 20 69 73 3A 00 ... -- CPU_WriteMem(1024 bytes @ 0x20000164)  returns 0x400 (0008ms, 0479ms total)
T1E3C 000:901 JLINK_WriteReg(R0, 0x08000400)  returns 0x00 (0001ms, 0480ms total)
T1E3C 000:902 JLINK_WriteReg(R1, 0x00000400)  returns 0x00 (0000ms, 0480ms total)
T1E3C 000:902 JLINK_WriteReg(R2, 0x20000164)  returns 0x00 (0000ms, 0480ms total)
T1E3C 000:902 JLINK_WriteReg(R3, 0x00000000)  returns 0x00 (0000ms, 0480ms total)
T1E3C 000:902 JLINK_WriteReg(R4, 0x00000000)  returns 0x00 (0000ms, 0480ms total)
T1E3C 000:902 JLINK_WriteReg(R5, 0x00000000)  returns 0x00 (0000ms, 0480ms total)
T1E3C 000:902 JLINK_WriteReg(R6, 0x00000000)  returns 0x00 (0000ms, 0480ms total)
T1E3C 000:902 JLINK_WriteReg(R7, 0x00000000)  returns 0x00 (0000ms, 0480ms total)
T1E3C 000:902 JLINK_WriteReg(R8, 0x00000000)  returns 0x00 (0000ms, 0480ms total)
T1E3C 000:902 JLINK_WriteReg(R9, 0x20000160)  returns 0x00 (0000ms, 0480ms total)
T1E3C 000:902 JLINK_WriteReg(R10, 0x00000000)  returns 0x00 (0000ms, 0480ms total)
T1E3C 000:902 JLINK_WriteReg(R11, 0x00000000)  returns 0x00 (0000ms, 0480ms total)
T1E3C 000:902 JLINK_WriteReg(R12, 0x00000000)  returns 0x00 (0000ms, 0480ms total)
T1E3C 000:902 JLINK_WriteReg(R13, 0x20001000)  returns 0x00 (0000ms, 0480ms total)
T1E3C 000:902 JLINK_WriteReg(R14, 0x20000001)  returns 0x00 (0000ms, 0480ms total)
T1E3C 000:902 JLINK_WriteReg(R15, 0x200000F4)  returns 0x00 (0000ms, 0480ms total)
T1E3C 000:902 JLINK_WriteReg(XPSR, 0x01000000)  returns 0x00 (0000ms, 0480ms total)
T1E3C 000:902 JLINK_WriteReg(MSP, 0x20001000)  returns 0x00 (0000ms, 0480ms total)
T1E3C 000:902 JLINK_WriteReg(PSP, 0x20001000)  returns 0x00 (0000ms, 0480ms total)
T1E3C 000:902 JLINK_WriteReg(CFBP, 0x00000000)  returns 0x00 (0000ms, 0480ms total)
T1E3C 000:902 JLINK_SetBPEx(Addr = 0x20000000, Type = 0xFFFFFFF2)  returns 0x00000006 (0000ms, 0480ms total)
T1E3C 000:902 JLINK_Go() (0005ms, 0485ms total)
T1E3C 000:907 JLINK_IsHalted()  returns FALSE (0002ms, 0487ms total)
T1E3C 000:930 JLINK_IsHalted()  returns FALSE (0001ms, 0486ms total)
T1E3C 000:933 JLINK_IsHalted()  returns FALSE (0002ms, 0487ms total)
T1E3C 000:939 JLINK_IsHalted() -- CPU_ReadMem(2 bytes @ 0x20000000)  returns TRUE (0007ms, 0492ms total)
T1E3C 000:946 JLINK_ReadReg(R15)  returns 0x20000000 (0000ms, 0485ms total)
T1E3C 000:946 JLINK_ClrBPEx(BPHandle = 0x00000006)  returns 0x00 (0000ms, 0485ms total)
T1E3C 000:946 JLINK_ReadReg(R0)  returns 0x00000000 (0000ms, 0485ms total)
T1E3C 000:947 JLINK_WriteMem(0x20000164, 0x0400 Bytes, ...) -- Data:  73 74 65 72 65 64 20 21 00 00 00 00 F0 93 00 08 ... -- CPU_WriteMem(1024 bytes @ 0x20000164)  returns 0x400 (0008ms, 0493ms total)
T1E3C 000:955 JLINK_WriteReg(R0, 0x08000800)  returns 0x00 (0000ms, 0493ms total)
T1E3C 000:955 JLINK_WriteReg(R1, 0x00000400)  returns 0x00 (0000ms, 0493ms total)
T1E3C 000:955 JLINK_WriteReg(R2, 0x20000164)  returns 0x00 (0000ms, 0493ms total)
T1E3C 000:955 JLINK_WriteReg(R3, 0x00000000)  returns 0x00 (0000ms, 0493ms total)
T1E3C 000:955 JLINK_WriteReg(R4, 0x00000000)  returns 0x00 (0000ms, 0493ms total)
T1E3C 000:955 JLINK_WriteReg(R5, 0x00000000)  returns 0x00 (0000ms, 0493ms total)
T1E3C 000:955 JLINK_WriteReg(R6, 0x00000000)  returns 0x00 (0000ms, 0493ms total)
T1E3C 000:955 JLINK_WriteReg(R7, 0x00000000)  returns 0x00 (0000ms, 0493ms total)
T1E3C 000:955 JLINK_WriteReg(R8, 0x00000000)  returns 0x00 (0001ms, 0494ms total)
T1E3C 000:956 JLINK_WriteReg(R9, 0x20000160)  returns 0x00 (0000ms, 0494ms total)
T1E3C 000:956 JLINK_WriteReg(R10, 0x00000000)  returns 0x00 (0000ms, 0494ms total)
T1E3C 000:956 JLINK_WriteReg(R11, 0x00000000)  returns 0x00 (0000ms, 0494ms total)
T1E3C 000:956 JLINK_WriteReg(R12, 0x00000000)  returns 0x00 (0000ms, 0494ms total)
T1E3C 000:956 JLINK_WriteReg(R13, 0x20001000)  returns 0x00 (0000ms, 0494ms total)
T1E3C 000:956 JLINK_WriteReg(R14, 0x20000001)  returns 0x00 (0000ms, 0494ms total)
T1E3C 000:956 JLINK_WriteReg(R15, 0x200000F4)  returns 0x00 (0000ms, 0494ms total)
T1E3C 000:956 JLINK_WriteReg(XPSR, 0x01000000)  returns 0x00 (0000ms, 0494ms total)
T1E3C 000:956 JLINK_WriteReg(MSP, 0x20001000)  returns 0x00 (0000ms, 0494ms total)
T1E3C 000:956 JLINK_WriteReg(PSP, 0x20001000)  returns 0x00 (0000ms, 0494ms total)
T1E3C 000:956 JLINK_WriteReg(CFBP, 0x00000000)  returns 0x00 (0000ms, 0494ms total)
T1E3C 000:956 JLINK_SetBPEx(Addr = 0x20000000, Type = 0xFFFFFFF2)  returns 0x00000007 (0000ms, 0494ms total)
T1E3C 000:956 JLINK_Go() (0004ms, 0498ms total)
T1E3C 000:960 JLINK_IsHalted()  returns FALSE (0002ms, 0500ms total)
T1E3C 000:964 JLINK_IsHalted()  returns FALSE (0001ms, 0499ms total)
T1E3C 000:967 JLINK_IsHalted()  returns FALSE (0001ms, 0499ms total)
T1E3C 000:971 JLINK_IsHalted()  returns FALSE (0002ms, 0500ms total)
T1E3C 000:974 JLINK_IsHalted()  returns FALSE (0002ms, 0500ms total)
T1E3C 000:978 JLINK_IsHalted()  returns FALSE (0002ms, 0500ms total)
T1E3C 000:986 JLINK_IsHalted()  returns FALSE (0001ms, 0499ms total)
T1E3C 000:989 JLINK_IsHalted()  returns FALSE (0001ms, 0499ms total)
T1E3C 000:993 JLINK_IsHalted() -- CPU_ReadMem(2 bytes @ 0x20000000)  returns TRUE (0007ms, 0505ms total)
T1E3C 001:000 JLINK_ReadReg(R15)  returns 0x20000000 (0000ms, 0498ms total)
T1E3C 001:000 JLINK_ClrBPEx(BPHandle = 0x00000007)  returns 0x00 (0000ms, 0498ms total)
T1E3C 001:000 JLINK_ReadReg(R0)  returns 0x00000000 (0000ms, 0498ms total)
T1E3C 001:001 JLINK_WriteMem(0x20000164, 0x0400 Bytes, ...) -- Data:  04 EB 42 0C 90 40 81 B2 BC F8 34 30 05 EB 01 0A ... -- CPU_WriteMem(1024 bytes @ 0x20000164)  returns 0x400 (0010ms, 0508ms total)
T1E3C 001:011 JLINK_WriteReg(R0, 0x08000C00)  returns 0x00 (0000ms, 0508ms total)
T1E3C 001:011 JLINK_WriteReg(R1, 0x00000400)  returns 0x00 (0000ms, 0508ms total)
T1E3C 001:011 JLINK_WriteReg(R2, 0x20000164)  returns 0x00 (0000ms, 0508ms total)
T1E3C 001:011 JLINK_WriteReg(R3, 0x00000000)  returns 0x00 (0000ms, 0508ms total)
T1E3C 001:011 JLINK_WriteReg(R4, 0x00000000)  returns 0x00 (0000ms, 0508ms total)
T1E3C 001:011 JLINK_WriteReg(R5, 0x00000000)  returns 0x00 (0000ms, 0508ms total)
T1E3C 001:011 JLINK_WriteReg(R6, 0x00000000)  returns 0x00 (0000ms, 0508ms total)
T1E3C 001:011 JLINK_WriteReg(R7, 0x00000000)  returns 0x00 (0000ms, 0508ms total)
T1E3C 001:011 JLINK_WriteReg(R8, 0x00000000)  returns 0x00 (0000ms, 0508ms total)
T1E3C 001:011 JLINK_WriteReg(R9, 0x20000160)  returns 0x00 (0000ms, 0508ms total)
T1E3C 001:011 JLINK_WriteReg(R10, 0x00000000)  returns 0x00 (0000ms, 0508ms total)
T1E3C 001:011 JLINK_WriteReg(R11, 0x00000000)  returns 0x00 (0000ms, 0508ms total)
T1E3C 001:011 JLINK_WriteReg(R12, 0x00000000)  returns 0x00 (0000ms, 0508ms total)
T1E3C 001:011 JLINK_WriteReg(R13, 0x20001000)  returns 0x00 (0000ms, 0508ms total)
T1E3C 001:011 JLINK_WriteReg(R14, 0x20000001)  returns 0x00 (0000ms, 0508ms total)
T1E3C 001:011 JLINK_WriteReg(R15, 0x200000F4)  returns 0x00 (0000ms, 0508ms total)
T1E3C 001:011 JLINK_WriteReg(XPSR, 0x01000000)  returns 0x00 (0000ms, 0508ms total)
T1E3C 001:011 JLINK_WriteReg(MSP, 0x20001000)  returns 0x00 (0000ms, 0508ms total)
T1E3C 001:011 JLINK_WriteReg(PSP, 0x20001000)  returns 0x00 (0000ms, 0508ms total)
T1E3C 001:011 JLINK_WriteReg(CFBP, 0x00000000)  returns 0x00 (0000ms, 0508ms total)
T1E3C 001:011 JLINK_SetBPEx(Addr = 0x20000000, Type = 0xFFFFFFF2)  returns 0x00000008 (0000ms, 0508ms total)
T1E3C 001:011 JLINK_Go() (0004ms, 0512ms total)
T1E3C 001:015 JLINK_IsHalted()  returns FALSE (0002ms, 0514ms total)
T1E3C 001:038 JLINK_IsHalted()  returns FALSE (0002ms, 0514ms total)
T1E3C 001:044 JLINK_IsHalted()  returns FALSE (0001ms, 0513ms total)
T1E3C 001:047 JLINK_IsHalted() -- CPU_ReadMem(2 bytes @ 0x20000000)  returns TRUE (0007ms, 0519ms total)
T1E3C 001:054 JLINK_ReadReg(R15)  returns 0x20000000 (0000ms, 0512ms total)
T1E3C 001:054 JLINK_ClrBPEx(BPHandle = 0x00000008)  returns 0x00 (0000ms, 0512ms total)
T1E3C 001:054 JLINK_ReadReg(R0)  returns 0x00000000 (0000ms, 0512ms total)
T1E3C 001:054 JLINK_WriteMem(0x20000164, 0x0400 Bytes, ...) -- Data:  62 6C 02 EB 85 02 14 E0 00 EB 07 41 62 6C A1 F5 ... -- CPU_WriteMem(1024 bytes @ 0x20000164)  returns 0x400 (0008ms, 0520ms total)
T1E3C 001:062 JLINK_WriteReg(R0, 0x08001000)  returns 0x00 (0000ms, 0520ms total)
T1E3C 001:062 JLINK_WriteReg(R1, 0x00000400)  returns 0x00 (0000ms, 0520ms total)
T1E3C 001:062 JLINK_WriteReg(R2, 0x20000164)  returns 0x00 (0000ms, 0520ms total)
T1E3C 001:062 JLINK_WriteReg(R3, 0x00000000)  returns 0x00 (0000ms, 0520ms total)
T1E3C 001:062 JLINK_WriteReg(R4, 0x00000000)  returns 0x00 (0000ms, 0520ms total)
T1E3C 001:062 JLINK_WriteReg(R5, 0x00000000)  returns 0x00 (0000ms, 0520ms total)
T1E3C 001:062 JLINK_WriteReg(R6, 0x00000000)  returns 0x00 (0000ms, 0520ms total)
T1E3C 001:062 JLINK_WriteReg(R7, 0x00000000)  returns 0x00 (0000ms, 0520ms total)
T1E3C 001:062 JLINK_WriteReg(R8, 0x00000000)  returns 0x00 (0000ms, 0520ms total)
T1E3C 001:062 JLINK_WriteReg(R9, 0x20000160)  returns 0x00 (0000ms, 0520ms total)
T1E3C 001:062 JLINK_WriteReg(R10, 0x00000000)  returns 0x00 (0000ms, 0520ms total)
T1E3C 001:062 JLINK_WriteReg(R11, 0x00000000)  returns 0x00 (0000ms, 0520ms total)
T1E3C 001:062 JLINK_WriteReg(R12, 0x00000000)  returns 0x00 (0000ms, 0520ms total)
T1E3C 001:062 JLINK_WriteReg(R13, 0x20001000)  returns 0x00 (0000ms, 0520ms total)
T1E3C 001:062 JLINK_WriteReg(R14, 0x20000001)  returns 0x00 (0000ms, 0520ms total)
T1E3C 001:062 JLINK_WriteReg(R15, 0x200000F4)  returns 0x00 (0000ms, 0520ms total)
T1E3C 001:062 JLINK_WriteReg(XPSR, 0x01000000)  returns 0x00 (0000ms, 0520ms total)
T1E3C 001:062 JLINK_WriteReg(MSP, 0x20001000)  returns 0x00 (0000ms, 0520ms total)
T1E3C 001:062 JLINK_WriteReg(PSP, 0x20001000)  returns 0x00 (0000ms, 0520ms total)
T1E3C 001:062 JLINK_WriteReg(CFBP, 0x00000000)  returns 0x00 (0000ms, 0520ms total)
T1E3C 001:062 JLINK_SetBPEx(Addr = 0x20000000, Type = 0xFFFFFFF2)  returns 0x00000009 (0000ms, 0520ms total)
T1E3C 001:062 JLINK_Go() (0005ms, 0525ms total)
T1E3C 001:067 JLINK_IsHalted()  returns FALSE (0002ms, 0527ms total)
T1E3C 001:071 JLINK_IsHalted()  returns FALSE (0002ms, 0527ms total)
T1E3C 001:075 JLINK_IsHalted()  returns FALSE (0001ms, 0526ms total)
T1E3C 001:078 JLINK_IsHalted()  returns FALSE (0001ms, 0526ms total)
T1E3C 001:081 JLINK_IsHalted()  returns FALSE (0001ms, 0526ms total)
T1E3C 001:084 JLINK_IsHalted()  returns FALSE (0001ms, 0526ms total)
T1E3C 001:087 JLINK_IsHalted()  returns FALSE (0001ms, 0526ms total)
T1E3C 001:094 JLINK_IsHalted()  returns FALSE (0002ms, 0527ms total)
T1E3C 001:098 JLINK_IsHalted() -- CPU_ReadMem(2 bytes @ 0x20000000)  returns TRUE (0006ms, 0531ms total)
T1E3C 001:104 JLINK_ReadReg(R15)  returns 0x20000000 (0000ms, 0525ms total)
T1E3C 001:104 JLINK_ClrBPEx(BPHandle = 0x00000009)  returns 0x00 (0000ms, 0525ms total)
T1E3C 001:104 JLINK_ReadReg(R0)  returns 0x00000000 (0000ms, 0525ms total)
T1E3C 001:105 JLINK_WriteMem(0x20000164, 0x0400 Bytes, ...) -- Data:  DF F8 C4 C3 A6 68 C0 F3 08 08 5B 79 04 F1 08 00 ... -- CPU_WriteMem(1024 bytes @ 0x20000164)  returns 0x400 (0008ms, 0533ms total)
T1E3C 001:113 JLINK_WriteReg(R0, 0x08001400)  returns 0x00 (0000ms, 0533ms total)
T1E3C 001:113 JLINK_WriteReg(R1, 0x00000400)  returns 0x00 (0000ms, 0533ms total)
T1E3C 001:113 JLINK_WriteReg(R2, 0x20000164)  returns 0x00 (0000ms, 0533ms total)
T1E3C 001:113 JLINK_WriteReg(R3, 0x00000000)  returns 0x00 (0000ms, 0533ms total)
T1E3C 001:113 JLINK_WriteReg(R4, 0x00000000)  returns 0x00 (0000ms, 0533ms total)
T1E3C 001:113 JLINK_WriteReg(R5, 0x00000000)  returns 0x00 (0000ms, 0533ms total)
T1E3C 001:113 JLINK_WriteReg(R6, 0x00000000)  returns 0x00 (0000ms, 0533ms total)
T1E3C 001:113 JLINK_WriteReg(R7, 0x00000000)  returns 0x00 (0000ms, 0533ms total)
T1E3C 001:113 JLINK_WriteReg(R8, 0x00000000)  returns 0x00 (0000ms, 0533ms total)
T1E3C 001:113 JLINK_WriteReg(R9, 0x20000160)  returns 0x00 (0000ms, 0533ms total)
T1E3C 001:113 JLINK_WriteReg(R10, 0x00000000)  returns 0x00 (0000ms, 0533ms total)
T1E3C 001:113 JLINK_WriteReg(R11, 0x00000000)  returns 0x00 (0000ms, 0533ms total)
T1E3C 001:113 JLINK_WriteReg(R12, 0x00000000)  returns 0x00 (0000ms, 0533ms total)
T1E3C 001:113 JLINK_WriteReg(R13, 0x20001000)  returns 0x00 (0000ms, 0533ms total)
T1E3C 001:113 JLINK_WriteReg(R14, 0x20000001)  returns 0x00 (0000ms, 0533ms total)
T1E3C 001:113 JLINK_WriteReg(R15, 0x200000F4)  returns 0x00 (0000ms, 0533ms total)
T1E3C 001:114 JLINK_WriteReg(XPSR, 0x01000000)  returns 0x00 (0000ms, 0533ms total)
T1E3C 001:114 JLINK_WriteReg(MSP, 0x20001000)  returns 0x00 (0000ms, 0533ms total)
T1E3C 001:114 JLINK_WriteReg(PSP, 0x20001000)  returns 0x00 (0000ms, 0533ms total)
T1E3C 001:114 JLINK_WriteReg(CFBP, 0x00000000)  returns 0x00 (0000ms, 0533ms total)
T1E3C 001:114 JLINK_SetBPEx(Addr = 0x20000000, Type = 0xFFFFFFF2)  returns 0x0000000A (0000ms, 0533ms total)
T1E3C 001:114 JLINK_Go() (0004ms, 0537ms total)
T1E3C 001:118 JLINK_IsHalted()  returns FALSE (0003ms, 0540ms total)
T1E3C 001:139 JLINK_IsHalted()  returns FALSE (0002ms, 0539ms total)
T1E3C 001:143 JLINK_IsHalted()  returns FALSE (0002ms, 0539ms total)
T1E3C 001:147 JLINK_IsHalted()  returns FALSE (0001ms, 0538ms total)
T1E3C 001:150 JLINK_IsHalted() -- CPU_ReadMem(2 bytes @ 0x20000000)  returns TRUE (0007ms, 0544ms total)
T1E3C 001:157 JLINK_ReadReg(R15)  returns 0x20000000 (0000ms, 0537ms total)
T1E3C 001:157 JLINK_ClrBPEx(BPHandle = 0x0000000A)  returns 0x00 (0000ms, 0537ms total)
T1E3C 001:157 JLINK_ReadReg(R0)  returns 0x00000000 (0000ms, 0537ms total)
T1E3C 001:158 JLINK_WriteMem(0x20000164, 0x0400 Bytes, ...) -- Data:  2E 00 00 00 FF BF FF 3F 43 72 65 61 74 65 20 72 ... -- CPU_WriteMem(1024 bytes @ 0x20000164)  returns 0x400 (0008ms, 0545ms total)
T1E3C 001:166 JLINK_WriteReg(R0, 0x08001800)  returns 0x00 (0000ms, 0545ms total)
T1E3C 001:166 JLINK_WriteReg(R1, 0x00000400)  returns 0x00 (0000ms, 0545ms total)
T1E3C 001:166 JLINK_WriteReg(R2, 0x20000164)  returns 0x00 (0001ms, 0546ms total)
T1E3C 001:167 JLINK_WriteReg(R3, 0x00000000)  returns 0x00 (0000ms, 0546ms total)
T1E3C 001:167 JLINK_WriteReg(R4, 0x00000000)  returns 0x00 (0000ms, 0546ms total)
T1E3C 001:167 JLINK_WriteReg(R5, 0x00000000)  returns 0x00 (0000ms, 0546ms total)
T1E3C 001:167 JLINK_WriteReg(R6, 0x00000000)  returns 0x00 (0000ms, 0546ms total)
T1E3C 001:167 JLINK_WriteReg(R7, 0x00000000)  returns 0x00 (0000ms, 0546ms total)
T1E3C 001:167 JLINK_WriteReg(R8, 0x00000000)  returns 0x00 (0000ms, 0546ms total)
T1E3C 001:167 JLINK_WriteReg(R9, 0x20000160)  returns 0x00 (0000ms, 0546ms total)
T1E3C 001:167 JLINK_WriteReg(R10, 0x00000000)  returns 0x00 (0000ms, 0546ms total)
T1E3C 001:167 JLINK_WriteReg(R11, 0x00000000)  returns 0x00 (0000ms, 0546ms total)
T1E3C 001:167 JLINK_WriteReg(R12, 0x00000000)  returns 0x00 (0000ms, 0546ms total)
T1E3C 001:167 JLINK_WriteReg(R13, 0x20001000)  returns 0x00 (0000ms, 0546ms total)
T1E3C 001:167 JLINK_WriteReg(R14, 0x20000001)  returns 0x00 (0000ms, 0546ms total)
T1E3C 001:167 JLINK_WriteReg(R15, 0x200000F4)  returns 0x00 (0000ms, 0546ms total)
T1E3C 001:167 JLINK_WriteReg(XPSR, 0x01000000)  returns 0x00 (0000ms, 0546ms total)
T1E3C 001:167 JLINK_WriteReg(MSP, 0x20001000)  returns 0x00 (0000ms, 0546ms total)
T1E3C 001:167 JLINK_WriteReg(PSP, 0x20001000)  returns 0x00 (0000ms, 0546ms total)
T1E3C 001:167 JLINK_WriteReg(CFBP, 0x00000000)  returns 0x00 (0000ms, 0546ms total)
T1E3C 001:167 JLINK_SetBPEx(Addr = 0x20000000, Type = 0xFFFFFFF2)  returns 0x0000000B (0000ms, 0546ms total)
T1E3C 001:167 JLINK_Go() (0004ms, 0550ms total)
T1E3C 001:171 JLINK_IsHalted()  returns FALSE (0002ms, 0552ms total)
T1E3C 001:179 JLINK_IsHalted()  returns FALSE (0002ms, 0552ms total)
T1E3C 001:182 JLINK_IsHalted()  returns FALSE (0002ms, 0552ms total)
T1E3C 001:186 JLINK_IsHalted()  returns FALSE (0001ms, 0551ms total)
T1E3C 001:189 JLINK_IsHalted()  returns FALSE (0001ms, 0551ms total)
T1E3C 001:192 JLINK_IsHalted()  returns FALSE (0001ms, 0551ms total)
T1E3C 001:195 JLINK_IsHalted()  returns FALSE (0001ms, 0551ms total)
T1E3C 001:200 JLINK_IsHalted()  returns FALSE (0001ms, 0551ms total)
T1E3C 001:203 JLINK_IsHalted() -- CPU_ReadMem(2 bytes @ 0x20000000)  returns TRUE (0006ms, 0556ms total)
T1E3C 001:209 JLINK_ReadReg(R15)  returns 0x20000000 (0000ms, 0550ms total)
T1E3C 001:209 JLINK_ClrBPEx(BPHandle = 0x0000000B)  returns 0x00 (0000ms, 0550ms total)
T1E3C 001:209 JLINK_ReadReg(R0)  returns 0x00000000 (0000ms, 0550ms total)
T1E3C 001:210 JLINK_WriteMem(0x20000164, 0x0400 Bytes, ...) -- Data:  F9 00 70 47 89 68 00 F0 17 BA 10 B5 FF F7 77 FD ... -- CPU_WriteMem(1024 bytes @ 0x20000164)  returns 0x400 (0009ms, 0559ms total)
T1E3C 001:219 JLINK_WriteReg(R0, 0x08001C00)  returns 0x00 (0000ms, 0559ms total)
T1E3C 001:219 JLINK_WriteReg(R1, 0x00000400)  returns 0x00 (0000ms, 0559ms total)
T1E3C 001:219 JLINK_WriteReg(R2, 0x20000164)  returns 0x00 (0000ms, 0559ms total)
T1E3C 001:219 JLINK_WriteReg(R3, 0x00000000)  returns 0x00 (0000ms, 0559ms total)
T1E3C 001:219 JLINK_WriteReg(R4, 0x00000000)  returns 0x00 (0000ms, 0559ms total)
T1E3C 001:219 JLINK_WriteReg(R5, 0x00000000)  returns 0x00 (0000ms, 0559ms total)
T1E3C 001:219 JLINK_WriteReg(R6, 0x00000000)  returns 0x00 (0000ms, 0559ms total)
T1E3C 001:219 JLINK_WriteReg(R7, 0x00000000)  returns 0x00 (0000ms, 0559ms total)
T1E3C 001:219 JLINK_WriteReg(R8, 0x00000000)  returns 0x00 (0000ms, 0559ms total)
T1E3C 001:219 JLINK_WriteReg(R9, 0x20000160)  returns 0x00 (0000ms, 0559ms total)
T1E3C 001:219 JLINK_WriteReg(R10, 0x00000000)  returns 0x00 (0000ms, 0559ms total)
T1E3C 001:219 JLINK_WriteReg(R11, 0x00000000)  returns 0x00 (0000ms, 0559ms total)
T1E3C 001:219 JLINK_WriteReg(R12, 0x00000000)  returns 0x00 (0000ms, 0559ms total)
T1E3C 001:219 JLINK_WriteReg(R13, 0x20001000)  returns 0x00 (0000ms, 0559ms total)
T1E3C 001:219 JLINK_WriteReg(R14, 0x20000001)  returns 0x00 (0000ms, 0559ms total)
T1E3C 001:219 JLINK_WriteReg(R15, 0x200000F4)  returns 0x00 (0000ms, 0559ms total)
T1E3C 001:219 JLINK_WriteReg(XPSR, 0x01000000)  returns 0x00 (0000ms, 0559ms total)
T1E3C 001:219 JLINK_WriteReg(MSP, 0x20001000)  returns 0x00 (0000ms, 0559ms total)
T1E3C 001:219 JLINK_WriteReg(PSP, 0x20001000)  returns 0x00 (0000ms, 0559ms total)
T1E3C 001:219 JLINK_WriteReg(CFBP, 0x00000000)  returns 0x00 (0000ms, 0559ms total)
T1E3C 001:219 JLINK_SetBPEx(Addr = 0x20000000, Type = 0xFFFFFFF2)  returns 0x0000000C (0000ms, 0559ms total)
T1E3C 001:219 JLINK_Go() (0004ms, 0563ms total)
T1E3C 001:223 JLINK_IsHalted()  returns FALSE (0002ms, 0565ms total)
T1E3C 001:227 JLINK_IsHalted()  returns FALSE (0002ms, 0565ms total)
T1E3C 001:252 JLINK_IsHalted()  returns FALSE (0001ms, 0564ms total)
T1E3C 001:255 JLINK_IsHalted() -- CPU_ReadMem(2 bytes @ 0x20000000)  returns TRUE (0007ms, 0570ms total)
T1E3C 001:262 JLINK_ReadReg(R15)  returns 0x20000000 (0000ms, 0563ms total)
T1E3C 001:262 JLINK_ClrBPEx(BPHandle = 0x0000000C)  returns 0x00 (0000ms, 0563ms total)
T1E3C 001:262 JLINK_ReadReg(R0)  returns 0x00000000 (0000ms, 0563ms total)
T1E3C 001:262 JLINK_WriteMem(0x20000164, 0x0400 Bytes, ...) -- Data:  5B 46 41 49 4C 45 44 5D 0A 00 00 00 25 73 20 2E ... -- CPU_WriteMem(1024 bytes @ 0x20000164)  returns 0x400 (0008ms, 0571ms total)
T1E3C 001:270 JLINK_WriteReg(R0, 0x08002000)  returns 0x00 (0000ms, 0571ms total)
T1E3C 001:270 JLINK_WriteReg(R1, 0x00000400)  returns 0x00 (0000ms, 0571ms total)
T1E3C 001:270 JLINK_WriteReg(R2, 0x20000164)  returns 0x00 (0000ms, 0571ms total)
T1E3C 001:270 JLINK_WriteReg(R3, 0x00000000)  returns 0x00 (0000ms, 0571ms total)
T1E3C 001:270 JLINK_WriteReg(R4, 0x00000000)  returns 0x00 (0000ms, 0571ms total)
T1E3C 001:270 JLINK_WriteReg(R5, 0x00000000)  returns 0x00 (0000ms, 0571ms total)
T1E3C 001:270 JLINK_WriteReg(R6, 0x00000000)  returns 0x00 (0000ms, 0571ms total)
T1E3C 001:270 JLINK_WriteReg(R7, 0x00000000)  returns 0x00 (0000ms, 0571ms total)
T1E3C 001:270 JLINK_WriteReg(R8, 0x00000000)  returns 0x00 (0000ms, 0571ms total)
T1E3C 001:270 JLINK_WriteReg(R9, 0x20000160)  returns 0x00 (0000ms, 0571ms total)
T1E3C 001:270 JLINK_WriteReg(R10, 0x00000000)  returns 0x00 (0000ms, 0571ms total)
T1E3C 001:270 JLINK_WriteReg(R11, 0x00000000)  returns 0x00 (0000ms, 0571ms total)
T1E3C 001:270 JLINK_WriteReg(R12, 0x00000000)  returns 0x00 (0000ms, 0571ms total)
T1E3C 001:270 JLINK_WriteReg(R13, 0x20001000)  returns 0x00 (0000ms, 0571ms total)
T1E3C 001:270 JLINK_WriteReg(R14, 0x20000001)  returns 0x00 (0000ms, 0571ms total)
T1E3C 001:270 JLINK_WriteReg(R15, 0x200000F4)  returns 0x00 (0000ms, 0571ms total)
T1E3C 001:270 JLINK_WriteReg(XPSR, 0x01000000)  returns 0x00 (0000ms, 0571ms total)
T1E3C 001:270 JLINK_WriteReg(MSP, 0x20001000)  returns 0x00 (0000ms, 0571ms total)
T1E3C 001:270 JLINK_WriteReg(PSP, 0x20001000)  returns 0x00 (0000ms, 0571ms total)
T1E3C 001:270 JLINK_WriteReg(CFBP, 0x00000000)  returns 0x00 (0000ms, 0571ms total)
T1E3C 001:270 JLINK_SetBPEx(Addr = 0x20000000, Type = 0xFFFFFFF2)  returns 0x0000000D (0000ms, 0571ms total)
T1E3C 001:270 JLINK_Go() (0005ms, 0576ms total)
T1E3C 001:275 JLINK_IsHalted()  returns FALSE (0002ms, 0578ms total)
T1E3C 001:281 JLINK_IsHalted()  returns FALSE (0001ms, 0577ms total)
T1E3C 001:284 JLINK_IsHalted()  returns FALSE (0001ms, 0577ms total)
T1E3C 001:287 JLINK_IsHalted()  returns FALSE (0001ms, 0577ms total)
T1E3C 001:290 JLINK_IsHalted()  returns FALSE (0001ms, 0577ms total)
T1E3C 001:293 JLINK_IsHalted()  returns FALSE (0001ms, 0577ms total)
T1E3C 001:296 JLINK_IsHalted()  returns FALSE (0001ms, 0577ms total)
T1E3C 001:299 JLINK_IsHalted()  returns FALSE (0001ms, 0577ms total)
T1E3C 001:302 JLINK_IsHalted()  returns FALSE (0002ms, 0578ms total)
T1E3C 001:306 JLINK_IsHalted() -- CPU_ReadMem(2 bytes @ 0x20000000)  returns TRUE (0006ms, 0582ms total)
T1E3C 001:312 JLINK_ReadReg(R15)  returns 0x20000000 (0000ms, 0576ms total)
T1E3C 001:312 JLINK_ClrBPEx(BPHandle = 0x0000000D)  returns 0x00 (0000ms, 0576ms total)
T1E3C 001:312 JLINK_ReadReg(R0)  returns 0x00000000 (0000ms, 0576ms total)
T1E3C 001:312 JLINK_WriteMem(0x20000164, 0x0400 Bytes, ...) -- Data:  5C 4A 01 23 13 32 02 95 40 F2 F9 11 18 46 FD F7 ... -- CPU_WriteMem(1024 bytes @ 0x20000164)  returns 0x400 (0009ms, 0585ms total)
T1E3C 001:321 JLINK_WriteReg(R0, 0x08002400)  returns 0x00 (0000ms, 0585ms total)
T1E3C 001:321 JLINK_WriteReg(R1, 0x00000400)  returns 0x00 (0000ms, 0585ms total)
T1E3C 001:321 JLINK_WriteReg(R2, 0x20000164)  returns 0x00 (0000ms, 0585ms total)
T1E3C 001:321 JLINK_WriteReg(R3, 0x00000000)  returns 0x00 (0000ms, 0585ms total)
T1E3C 001:321 JLINK_WriteReg(R4, 0x00000000)  returns 0x00 (0000ms, 0585ms total)
T1E3C 001:321 JLINK_WriteReg(R5, 0x00000000)  returns 0x00 (0000ms, 0585ms total)
T1E3C 001:321 JLINK_WriteReg(R6, 0x00000000)  returns 0x00 (0000ms, 0585ms total)
T1E3C 001:321 JLINK_WriteReg(R7, 0x00000000)  returns 0x00 (0000ms, 0585ms total)
T1E3C 001:321 JLINK_WriteReg(R8, 0x00000000)  returns 0x00 (0000ms, 0585ms total)
T1E3C 001:321 JLINK_WriteReg(R9, 0x20000160)  returns 0x00 (0000ms, 0585ms total)
T1E3C 001:321 JLINK_WriteReg(R10, 0x00000000)  returns 0x00 (0000ms, 0585ms total)
T1E3C 001:321 JLINK_WriteReg(R11, 0x00000000)  returns 0x00 (0000ms, 0585ms total)
T1E3C 001:321 JLINK_WriteReg(R12, 0x00000000)  returns 0x00 (0000ms, 0585ms total)
T1E3C 001:321 JLINK_WriteReg(R13, 0x20001000)  returns 0x00 (0000ms, 0585ms total)
T1E3C 001:321 JLINK_WriteReg(R14, 0x20000001)  returns 0x00 (0000ms, 0585ms total)
T1E3C 001:321 JLINK_WriteReg(R15, 0x200000F4)  returns 0x00 (0000ms, 0585ms total)
T1E3C 001:322 JLINK_WriteReg(XPSR, 0x01000000)  returns 0x00 (0000ms, 0585ms total)
T1E3C 001:322 JLINK_WriteReg(MSP, 0x20001000)  returns 0x00 (0000ms, 0585ms total)
T1E3C 001:322 JLINK_WriteReg(PSP, 0x20001000)  returns 0x00 (0000ms, 0585ms total)
T1E3C 001:322 JLINK_WriteReg(CFBP, 0x00000000)  returns 0x00 (0000ms, 0585ms total)
T1E3C 001:322 JLINK_SetBPEx(Addr = 0x20000000, Type = 0xFFFFFFF2)  returns 0x0000000E (0000ms, 0585ms total)
T1E3C 001:322 JLINK_Go() (0004ms, 0589ms total)
T1E3C 001:326 JLINK_IsHalted()  returns FALSE (0002ms, 0591ms total)
T1E3C 001:332 JLINK_IsHalted()  returns FALSE (0001ms, 0590ms total)
T1E3C 001:335 JLINK_IsHalted()  returns FALSE (0002ms, 0591ms total)
T1E3C 001:358 JLINK_IsHalted() -- CPU_ReadMem(2 bytes @ 0x20000000)  returns TRUE (0007ms, 0596ms total)
T1E3C 001:365 JLINK_ReadReg(R15)  returns 0x20000000 (0000ms, 0589ms total)
T1E3C 001:365 JLINK_ClrBPEx(BPHandle = 0x0000000E)  returns 0x00 (0000ms, 0589ms total)
T1E3C 001:365 JLINK_ReadReg(R0)  returns 0x00000000 (0000ms, 0589ms total)
T1E3C 001:366 JLINK_WriteMem(0x20000164, 0x0400 Bytes, ...) -- Data:  40 46 F7 E5 20 46 00 F0 E0 FE 04 00 0B D0 68 68 ... -- CPU_WriteMem(1024 bytes @ 0x20000164)  returns 0x400 (0008ms, 0597ms total)
T1E3C 001:374 JLINK_WriteReg(R0, 0x08002800)  returns 0x00 (0000ms, 0597ms total)
T1E3C 001:374 JLINK_WriteReg(R1, 0x00000400)  returns 0x00 (0000ms, 0597ms total)
T1E3C 001:374 JLINK_WriteReg(R2, 0x20000164)  returns 0x00 (0000ms, 0597ms total)
T1E3C 001:374 JLINK_WriteReg(R3, 0x00000000)  returns 0x00 (0000ms, 0597ms total)
T1E3C 001:374 JLINK_WriteReg(R4, 0x00000000)  returns 0x00 (0000ms, 0597ms total)
T1E3C 001:374 JLINK_WriteReg(R5, 0x00000000)  returns 0x00 (0000ms, 0597ms total)
T1E3C 001:374 JLINK_WriteReg(R6, 0x00000000)  returns 0x00 (0000ms, 0597ms total)
T1E3C 001:374 JLINK_WriteReg(R7, 0x00000000)  returns 0x00 (0001ms, 0598ms total)
T1E3C 001:375 JLINK_WriteReg(R8, 0x00000000)  returns 0x00 (0000ms, 0598ms total)
T1E3C 001:375 JLINK_WriteReg(R9, 0x20000160)  returns 0x00 (0000ms, 0598ms total)
T1E3C 001:375 JLINK_WriteReg(R10, 0x00000000)  returns 0x00 (0000ms, 0598ms total)
T1E3C 001:375 JLINK_WriteReg(R11, 0x00000000)  returns 0x00 (0000ms, 0598ms total)
T1E3C 001:375 JLINK_WriteReg(R12, 0x00000000)  returns 0x00 (0000ms, 0598ms total)
T1E3C 001:375 JLINK_WriteReg(R13, 0x20001000)  returns 0x00 (0000ms, 0598ms total)
T1E3C 001:375 JLINK_WriteReg(R14, 0x20000001)  returns 0x00 (0000ms, 0598ms total)
T1E3C 001:375 JLINK_WriteReg(R15, 0x200000F4)  returns 0x00 (0000ms, 0598ms total)
T1E3C 001:375 JLINK_WriteReg(XPSR, 0x01000000)  returns 0x00 (0000ms, 0598ms total)
T1E3C 001:375 JLINK_WriteReg(MSP, 0x20001000)  returns 0x00 (0000ms, 0598ms total)
T1E3C 001:375 JLINK_WriteReg(PSP, 0x20001000)  returns 0x00 (0000ms, 0598ms total)
T1E3C 001:375 JLINK_WriteReg(CFBP, 0x00000000)  returns 0x00 (0000ms, 0598ms total)
T1E3C 001:375 JLINK_SetBPEx(Addr = 0x20000000, Type = 0xFFFFFFF2)  returns 0x0000000F (0000ms, 0598ms total)
T1E3C 001:375 JLINK_Go() (0004ms, 0602ms total)
T1E3C 001:379 JLINK_IsHalted()  returns FALSE (0002ms, 0604ms total)
T1E3C 001:385 JLINK_IsHalted()  returns FALSE (0002ms, 0604ms total)
T1E3C 001:389 JLINK_IsHalted()  returns FALSE (0001ms, 0603ms total)
T1E3C 001:392 JLINK_IsHalted()  returns FALSE (0002ms, 0604ms total)
T1E3C 001:396 JLINK_IsHalted()  returns FALSE (0002ms, 0604ms total)
T1E3C 001:400 JLINK_IsHalted()  returns FALSE (0001ms, 0603ms total)
T1E3C 001:403 JLINK_IsHalted()  returns FALSE (0001ms, 0603ms total)
T1E3C 001:406 JLINK_IsHalted()  returns FALSE (0001ms, 0603ms total)
T1E3C 001:409 JLINK_IsHalted() -- CPU_ReadMem(2 bytes @ 0x20000000)  returns TRUE (0007ms, 0609ms total)
T1E3C 001:416 JLINK_ReadReg(R15)  returns 0x20000000 (0000ms, 0602ms total)
T1E3C 001:416 JLINK_ClrBPEx(BPHandle = 0x0000000F)  returns 0x00 (0000ms, 0602ms total)
T1E3C 001:416 JLINK_ReadReg(R0)  returns 0x00000000 (0000ms, 0602ms total)
T1E3C 001:417 JLINK_WriteMem(0x20000164, 0x0400 Bytes, ...) -- Data:  73 73 20 27 25 73 27 20 66 61 69 6C 65 64 2E 00 ... -- CPU_WriteMem(1024 bytes @ 0x20000164)  returns 0x400 (0008ms, 0610ms total)
T1E3C 001:426 JLINK_WriteReg(R0, 0x08002C00)  returns 0x00 (0000ms, 0610ms total)
T1E3C 001:426 JLINK_WriteReg(R1, 0x00000400)  returns 0x00 (0000ms, 0610ms total)
T1E3C 001:426 JLINK_WriteReg(R2, 0x20000164)  returns 0x00 (0000ms, 0610ms total)
T1E3C 001:426 JLINK_WriteReg(R3, 0x00000000)  returns 0x00 (0000ms, 0610ms total)
T1E3C 001:426 JLINK_WriteReg(R4, 0x00000000)  returns 0x00 (0000ms, 0610ms total)
T1E3C 001:426 JLINK_WriteReg(R5, 0x00000000)  returns 0x00 (0000ms, 0610ms total)
T1E3C 001:426 JLINK_WriteReg(R6, 0x00000000)  returns 0x00 (0000ms, 0610ms total)
T1E3C 001:426 JLINK_WriteReg(R7, 0x00000000)  returns 0x00 (0000ms, 0610ms total)
T1E3C 001:426 JLINK_WriteReg(R8, 0x00000000)  returns 0x00 (0000ms, 0610ms total)
T1E3C 001:426 JLINK_WriteReg(R9, 0x20000160)  returns 0x00 (0000ms, 0610ms total)
T1E3C 001:426 JLINK_WriteReg(R10, 0x00000000)  returns 0x00 (0000ms, 0610ms total)
T1E3C 001:426 JLINK_WriteReg(R11, 0x00000000)  returns 0x00 (0000ms, 0610ms total)
T1E3C 001:426 JLINK_WriteReg(R12, 0x00000000)  returns 0x00 (0000ms, 0610ms total)
T1E3C 001:426 JLINK_WriteReg(R13, 0x20001000)  returns 0x00 (0000ms, 0610ms total)
T1E3C 001:426 JLINK_WriteReg(R14, 0x20000001)  returns 0x00 (0000ms, 0610ms total)
T1E3C 001:426 JLINK_WriteReg(R15, 0x200000F4)  returns 0x00 (0000ms, 0610ms total)
T1E3C 001:426 JLINK_WriteReg(XPSR, 0x01000000)  returns 0x00 (0000ms, 0610ms total)
T1E3C 001:426 JLINK_WriteReg(MSP, 0x20001000)  returns 0x00 (0000ms, 0610ms total)
T1E3C 001:426 JLINK_WriteReg(PSP, 0x20001000)  returns 0x00 (0000ms, 0610ms total)
T1E3C 001:426 JLINK_WriteReg(CFBP, 0x00000000)  returns 0x00 (0000ms, 0610ms total)
T1E3C 001:426 JLINK_SetBPEx(Addr = 0x20000000, Type = 0xFFFFFFF2)  returns 0x00000010 (0000ms, 0610ms total)
T1E3C 001:426 JLINK_Go() (0005ms, 0615ms total)
T1E3C 001:431 JLINK_IsHalted()  returns FALSE (0001ms, 0616ms total)
T1E3C 001:436 JLINK_IsHalted()  returns FALSE (0002ms, 0617ms total)
T1E3C 001:440 JLINK_IsHalted()  returns FALSE (0001ms, 0616ms total)
T1E3C 001:443 JLINK_IsHalted()  returns FALSE (0001ms, 0616ms total)
T1E3C 001:446 JLINK_IsHalted()  returns FALSE (0002ms, 0617ms total)
T1E3C 001:468 JLINK_IsHalted() -- CPU_ReadMem(2 bytes @ 0x20000000)  returns TRUE (0006ms, 0621ms total)
T1E3C 001:474 JLINK_ReadReg(R15)  returns 0x20000000 (0000ms, 0615ms total)
T1E3C 001:474 JLINK_ClrBPEx(BPHandle = 0x00000010)  returns 0x00 (0000ms, 0615ms total)
T1E3C 001:474 JLINK_ReadReg(R0)  returns 0x00000000 (0000ms, 0615ms total)
T1E3C 001:474 JLINK_WriteMem(0x20000164, 0x0400 Bytes, ...) -- Data:  03 F0 E8 FA 20 68 C0 F3 41 70 AF F6 A0 01 CD E9 ... -- CPU_WriteMem(1024 bytes @ 0x20000164)  returns 0x400 (0009ms, 0624ms total)
T1E3C 001:483 JLINK_WriteReg(R0, 0x08003000)  returns 0x00 (0000ms, 0624ms total)
T1E3C 001:483 JLINK_WriteReg(R1, 0x00000400)  returns 0x00 (0000ms, 0624ms total)
T1E3C 001:483 JLINK_WriteReg(R2, 0x20000164)  returns 0x00 (0000ms, 0624ms total)
T1E3C 001:483 JLINK_WriteReg(R3, 0x00000000)  returns 0x00 (0000ms, 0624ms total)
T1E3C 001:483 JLINK_WriteReg(R4, 0x00000000)  returns 0x00 (0000ms, 0624ms total)
T1E3C 001:483 JLINK_WriteReg(R5, 0x00000000)  returns 0x00 (0000ms, 0624ms total)
